
**** 11/25/16 09:10:42 ********* PSpice 9.2 (Mar 2000) ******** ID# 0 ********

 ** Profile: "SCHEMATIC1-7 th run"  [ D:\A\e, sources\Electrical Circuit\Homeworks\hw9\3\9-3-SCHEMATIC1-7 th run.sim ] 


 ****     CIRCUIT DESCRIPTION


******************************************************************************




** Creating circuit file "9-3-SCHEMATIC1-7 th run.sim.cir" 
** WARNING: THIS AUTOMATICALLY GENERATED FILE MAY BE OVERWRITTEN BY SUBSEQUENT SIMULATIONS

*Libraries: 
* Local Libraries :
* From [PSPICE NETLIST] section of d:\orcad\PSpice\PSpice.ini file:
.lib "nom.lib" 

*Analysis directives: 
.TRAN  0 1000ns 0 
.PROBE V(*) I(*) W(*) D(*) NOISE(*) 
.INC ".\9-3-SCHEMATIC1.net" 



**** INCLUDING 9-3-SCHEMATIC1.net ****
* source 9-3
L_L1         N00504 N00534  80m  
R_R1         0 N00504  15  
R_R2         N00561 N00534  1  
R_R3         N00395 N00561  20  
X_U2         N00743 N00561 Sw_tClose PARAMS: tClose=0 ttran=1u Rclosed=0.01
+  Ropen=1Meg
R_R4         N00743 N00600  5  
V_V1         N00395 0 480
V_V2         N00600 0 280
X_H1    0 N00534 N00534 N00561 SCHEMATIC1_H1 

.subckt SCHEMATIC1_H1 1 2 3 4  
H_H1         3 4 VH_H1 0.8
VH_H1         1 2 0V
.ends SCHEMATIC1_H1

**** RESUMING "9-3-SCHEMATIC1-7 th run.sim.cir" ****
.END

**** 11/25/16 09:10:42 ********* PSpice 9.2 (Mar 2000) ******** ID# 0 ********

 ** Profile: "SCHEMATIC1-7 th run"  [ D:\A\e, sources\Electrical Circuit\Homeworks\hw9\3\9-3-SCHEMATIC1-7 th run.sim ] 


 ****     Voltage Controlled Switch MODEL PARAMETERS


******************************************************************************




               X_U2.Smod       
         RON     .01         
        ROFF    1.000000E+06 
         VON    1            
        VOFF    0            


**** 11/25/16 09:10:42 ********* PSpice 9.2 (Mar 2000) ******** ID# 0 ********

 ** Profile: "SCHEMATIC1-7 th run"  [ D:\A\e, sources\Electrical Circuit\Homeworks\hw9\3\9-3-SCHEMATIC1-7 th run.sim ] 


 ****     INITIAL TRANSIENT SOLUTION       TEMPERATURE =   27.000 DEG C


******************************************************************************



 NODE   VOLTAGE     NODE   VOLTAGE     NODE   VOLTAGE     NODE   VOLTAGE


(N00395)  480.0000 (N00504)    0.0000 (N00534)    0.0000 (N00561)   18.4620     

(N00600)  280.0000 (N00743)  280.0000 (X_U2.3)    0.0000 




    VOLTAGE SOURCE CURRENTS
    NAME         CURRENT

    V_V1        -2.308E+01
    V_V2        -2.615E-04
    X_U2.V1      0.000E+00
    X_H1.VH_H1  -2.308E+01

    TOTAL POWER DISSIPATION   1.11E+04  WATTS



          JOB CONCLUDED

          TOTAL JOB TIME             .08
