
**** 11/28/16 14:23:34 ********* PSpice 9.2 (Mar 2000) ******** ID# 0 ********

 ** Profile: "SCHEMATIC1-last run"  [ D:\A\e, sources\Electrical Circuit\Homeworks\hw9\9431022-yasaman mirmohammad-hw9\4\9-4-SCHEMATI


 ****     CIRCUIT DESCRIPTION


******************************************************************************




** Creating circuit file "9-4-SCHEMATIC1-last run.sim.cir" 
** WARNING: THIS AUTOMATICALLY GENERATED FILE MAY BE OVERWRITTEN BY SUBSEQUENT SIMULATIONS

*Libraries: 
* Local Libraries :
* From [PSPICE NETLIST] section of d:\orcad\PSpice\PSpice.ini file:
.lib "nom.lib" 

*Analysis directives: 
.TRAN  0 1000ns 0 
.PROBE V(*) I(*) W(*) D(*) NOISE(*) 
.INC ".\9-4-SCHEMATIC1.net" 



**** INCLUDING 9-4-SCHEMATIC1.net ****
* source 9-4
R_R1         N00535 N00245  16  
X_U1         N00414 N00535 Sw_tClose PARAMS: tClose=0 ttran=1u Rclosed=0.01
+  Ropen=1Meg
R_R2         0 N00336  4  
X_U2         N00336 N00414 Sw_tClose PARAMS: tClose=0 ttran=1u Rclosed=0.01
+  Ropen=1Meg
I_I1         N00336 0 DC 5m  
V_V1         N00245 0 30
C_C1         0 N00414  20n  

**** RESUMING "9-4-SCHEMATIC1-last run.sim.cir" ****
.END

**** 11/28/16 14:23:34 ********* PSpice 9.2 (Mar 2000) ******** ID# 0 ********

 ** Profile: "SCHEMATIC1-last run"  [ D:\A\e, sources\Electrical Circuit\Homeworks\hw9\9431022-yasaman mirmohammad-hw9\4\9-4-SCHEMATI


 ****     Voltage Controlled Switch MODEL PARAMETERS


******************************************************************************




               X_U1.Smod       X_U2.Smod       
         RON     .01             .01         
        ROFF    1.000000E+06    1.000000E+06 
         VON    1               1            
        VOFF    0               0            


**** 11/28/16 14:23:34 ********* PSpice 9.2 (Mar 2000) ******** ID# 0 ********

 ** Profile: "SCHEMATIC1-last run"  [ D:\A\e, sources\Electrical Circuit\Homeworks\hw9\9431022-yasaman mirmohammad-hw9\4\9-4-SCHEMATI


 ****     INITIAL TRANSIENT SOLUTION       TEMPERATURE =   27.000 DEG C


******************************************************************************



 NODE   VOLTAGE     NODE   VOLTAGE     NODE   VOLTAGE     NODE   VOLTAGE


(N00245)   30.0000 (N00336)    -.0199 (N00414)   14.9900 (N00535)   30.0000     

(X_U1.3)    0.0000 (X_U2.3)    0.0000 




    VOLTAGE SOURCE CURRENTS
    NAME         CURRENT

    V_V1        -1.501E-05
    X_U1.V1      0.000E+00
    X_U2.V1      0.000E+00

    TOTAL POWER DISSIPATION   4.50E-04  WATTS



          JOB CONCLUDED

          TOTAL JOB TIME             .06
