
**** 11/28/16 14:25:23 ********* PSpice 9.2 (Mar 2000) ******** ID# 0 ********

 ** Profile: "SCHEMATIC1-last run"  [ D:\A\e, sources\Electrical Circuit\Homeworks\hw9\9431022-yasaman mirmohammad-hw9\2\9-2-schemati


 ****     CIRCUIT DESCRIPTION


******************************************************************************




** Creating circuit file "9-2-schematic1-last run.sim.cir" 
** WARNING: THIS AUTOMATICALLY GENERATED FILE MAY BE OVERWRITTEN BY SUBSEQUENT SIMULATIONS

*Libraries: 
* Local Libraries :
* From [PSPICE NETLIST] section of d:\orcad\PSpice\PSpice.ini file:
.lib "nom.lib" 

*Analysis directives: 
.TRAN  0 1000ns 0 
.PROBE V(*) I(*) W(*) D(*) NOISE(*) 
.INC ".\9-2-SCHEMATIC1.net" 



**** INCLUDING 9-2-SCHEMATIC1.net ****
* source 9-2
X_U5         B N09187 Sw_tClose PARAMS: tClose=0 ttran=1u Rclosed=0.01
+  Ropen=1Meg
R_R1         A N07639  6k  
R_R2         0 A  10k  
X_H2    C N05773 C N09187 SCHEMATIC1_H2 
R_R3         0 C  80k  
R_R4         N05773 C  20k  
V_V1         N05773 0 100
C_C1         0 B  5nF  
I_I1         0 A DC 8mAdc  
X_U6         B N07639 Sw_tOpen PARAMS: tOpen=0 ttran=1u Rclosed=0.01 Ropen=1Meg

.subckt SCHEMATIC1_H2 1 2 3 4  
H_H2         3 4 VH_H2 30000
VH_H2         1 2 0V
.ends SCHEMATIC1_H2

**** RESUMING "9-2-schematic1-last run.sim.cir" ****
.END

**** 11/28/16 14:25:23 ********* PSpice 9.2 (Mar 2000) ******** ID# 0 ********

 ** Profile: "SCHEMATIC1-last run"  [ D:\A\e, sources\Electrical Circuit\Homeworks\hw9\9431022-yasaman mirmohammad-hw9\2\9-2-schemati


 ****     Voltage Controlled Switch MODEL PARAMETERS


******************************************************************************




               X_U5.Smod       X_U6.Smod       
         RON     .01             .01         
        ROFF    1.000000E+06    1.000000E+06 
         VON    1               1            
        VOFF    0               0            


**** 11/28/16 14:25:23 ********* PSpice 9.2 (Mar 2000) ******** ID# 0 ********

 ** Profile: "SCHEMATIC1-last run"  [ D:\A\e, sources\Electrical Circuit\Homeworks\hw9\9431022-yasaman mirmohammad-hw9\2\9-2-schemati


 ****     INITIAL TRANSIENT SOLUTION       TEMPERATURE =   27.000 DEG C


******************************************************************************



 NODE   VOLTAGE     NODE   VOLTAGE     NODE   VOLTAGE     NODE   VOLTAGE


(    A)   80.5830  (    B)   80.9330  (    C)  100.0000  (N05773)  100.0000     

(N07639)   80.9330 (N09187)  139.2500 (X_U5.3)    0.0000 (X_U6.3)    1.0000 




    VOLTAGE SOURCE CURRENTS
    NAME         CURRENT

    V_V1        -1.308E-03
    X_U5.V1      0.000E+00
    X_H2.VH_H2  -1.308E-03
    X_U6.V1     -1.000E-12

    TOTAL POWER DISSIPATION   1.31E-01  WATTS



          JOB CONCLUDED

          TOTAL JOB TIME             .08
