
**** 11/17/16 21:48:31 ********* PSpice 9.2 (Mar 2000) ******** ID# 0 ********

 ** Profile: "SCHEMATIC1-first run"  [ D:\A\e, sources\Electrical Circuit\Homeworks\hw8\3\8-3-SCHEMATIC1-first run.sim ] 


 ****     CIRCUIT DESCRIPTION


******************************************************************************




** Creating circuit file "8-3-SCHEMATIC1-first run.sim.cir" 
** WARNING: THIS AUTOMATICALLY GENERATED FILE MAY BE OVERWRITTEN BY SUBSEQUENT SIMULATIONS

*Libraries: 
* Local Libraries :
* From [PSPICE NETLIST] section of d:\orcad\PSpice\PSpice.ini file:
.lib "nom.lib" 

*Analysis directives: 
.PROBE V(*) I(*) W(*) D(*) NOISE(*) 
.INC ".\8-3-SCHEMATIC1.net" 



**** INCLUDING 8-3-SCHEMATIC1.net ****
* source 8-3
G_G1         0 A C 0 1
R_R1         C A  2  
V_V2         A 0 1vdc
R_R2         N00179 C  3  
R_R3         0 C  6  
R_R4         0 A  10  
V_V1         N00179 0 50Vdc

**** RESUMING "8-3-SCHEMATIC1-first run.sim.cir" ****
.END

**** 11/17/16 21:48:31 ********* PSpice 9.2 (Mar 2000) ******** ID# 0 ********

 ** Profile: "SCHEMATIC1-first run"  [ D:\A\e, sources\Electrical Circuit\Homeworks\hw8\3\8-3-SCHEMATIC1-first run.sim ] 


 ****     SMALL SIGNAL BIAS SOLUTION       TEMPERATURE =   27.000 DEG C


******************************************************************************



 NODE   VOLTAGE     NODE   VOLTAGE     NODE   VOLTAGE     NODE   VOLTAGE


(    A)    1.0000  (    C)   17.1670  (N00179)   50.0000 




    VOLTAGE SOURCE CURRENTS
    NAME         CURRENT

    V_V2         2.515E+01
    V_V1        -1.094E+01

    TOTAL POWER DISSIPATION   5.22E+02  WATTS



          JOB CONCLUDED

          TOTAL JOB TIME             .02
